Using: /usr/local/apps/synopsys/current_hspice/hspice/linux64/hspice  'hw4_p3a.sp' :
 ****** HSPICE -- K-2015.06-SP1 linux64 (Aug 23 2015) ******                    
  Copyright (c) 1986 - 2016 by Synopsys, Inc. All Rights Reserved.              
  This software and the associated documentation are proprietary
  to Synopsys, Inc. This software may only be used in accordance
  with the terms and conditions of a written license agreement with
  Synopsys, Inc. All other use, reproduction, or distribution of
  this software is strictly prohibited.
  Input File: hw4_p3a.sp                                                        
  Command line options: /usr/local/apps/synopsys/current_hspice/hspice/linux64/hspice hw4_p3a.sp :
 lic:  
 lic: FLEXlm: v11.2.1 
 lic: USER:   morriluk             HOSTNAME: dear119-18.engr.oregonstate.edu 
 lic: HOSTID: dc4a3e6cf835         PID:      8041 
 lic: Using FLEXlm license file: 
 lic: 7188@linlic.engr.oregonstate.edu 
 lic: Checkout 1 hspice 
 lic: License/Maintenance for hspice will expire on 11-jul-2017/2016.06 
 lic: 3(in_use)/50(total) FLOATING license(s) on SERVER 7188@linlic.engr.oregonstate.edu 
 lic:   
 Init: read install configuration file: /usr/local/apps/synopsys/current_hspice/hspice/meta.cfg
1****** HSPICE -- K-2015.06-SP1 linux64 (Aug 23 2015) ******                    
 ******  
 .title hw4_p3a

 ****** mos   model parameters tnom=  25.000 temp=  25.000 ******
 ***************************************************************************
 ***        model parameters  model name:   0:n_18     model type:nmos   ***
 ***************************************************************************

   *** general parameters ***
    deriv=   0.           

   ***  level 49  model parameters  ***

      hspver=    2006.03               level=         49         
     version=        3.1            paramchk=          0         
      apwarn=          1                lite=          0         
      vgslim=          0             binUnit=          1         
      capMod=          2               xpart=        0.5         
      mobMod=          1              nqsMod=          0         
      stiMod=          0                 elm=          5         
    sfvtflag=          0                 tox=    4.1e-09 meter   
          xj=      1e-07 meter       binflag=          0         
        lmin=          0 meter          lmax=          0 meter   
        wmin=          0 meter          wmax=          0 meter   
        lref=          0 meter          wref=          0 meter   
        lint=7.65986e-09 meter          wint=          0 meter   
       lmult=          1               wmult=          1         
          ll=          0                 lln=          1         
          lw=          0                 lwn=          1         
         lwl=          0                  wl=          0         
         wln=          1                  ww=          0         
         wwn=          1                 wwl=          0         
         dwg=-1.17694e-08 m/V             dwb=1.96583e-08 m/V^1/2 
          xl=          0                  xw=     -1e-08         
          a0=          2                 ags=   0.428182 V^-1    
          b0=-4.43566e-09 meter            b1=     -1e-07 meter   
        keta=-0.00873409 V^-1           voff= -0.0909514 V       
       ngate=          0 cm^-3           vbx=          0 V       
         vbm=         -3 V                xt=   1.55e-07 meter   
        vth0=   0.376033 V               nch= 2.3549e+17 cm^-3   
        nsub=      6e+16 cm^-3           nlx=1.83658e-07 meter   
      gamma1=          0 V^-1/2       gamma2=          0 V^-1/2  
          k1=   0.598252 V^1/2            k2= 0.00204285         
          k3=      0.001                 k3b=    5.47338 V^-1    
          w0=      1e-07 meter          dvt0=    1.38283         
        dvt1=   0.374633                dvt2=  0.0524724 V^-1    
       dvt0w=          0 meter^-1      dvt1w=          0 meter^-1
       dvt2w=          0 V^-1           dsub= 0.00880778         
        eta0=  0.0029649                etab=9.02839e-05 V^-1    
          u0=    265.099 cm^2/V/sec         ua=-1.34288e-09 m/V     
          ub=2.21876e-18 (m/V)^2          uc=5.30227e-11 V^-1    
        vsat=      99674 m/sec            a1=0.000117788 v^-1    
          a2=          1               delta=       0.01 V       
        rdsw=        150 ohm-um         prwg=        0.5 V^-1    
        prwb=       -0.2 V^-1/2           wr=          1         
        pclm=   0.739383             pdiblc1=   0.240506         
     pdiblc2= 0.00238467             pdiblcb=       -0.1 V^-1    
      pscbe1=2.25061e+09 V/m          pscbe2=5.50405e-09 V/m     
       drout=   0.810147                pvag= 0.00820885         
     nfactor=    2.47421                cdsc=    0.00024 f/m^2   
       cdscb=          0 f/V/m^2       cdscd=          0 f/V/m^2 
         cit=          0 f/m^2        alpha0=          0 m/V     
       beta0=         30 V               dlc=7.65986e-09 meter   
         dwc=          0 meter           clc=      1e-07 meter   
         cle=        0.6                cgso=   7.68e-10 f/m     
        cgdo=   7.68e-10 f/m            cgbo=      1e-12 f/m     
        cgsl=          0 f/m            cgdl=          0 f/m     
      ckappa=        0.6                  cf=          0 f/m     
        tnom=     300.15 K               kt1=      -0.11 V       
        kt1l=          0                 kt2=      0.022         
         ute=       -1.5                 ua1=   4.31e-09 m/V     
         ub1=  -7.61e-18 (m/V)^2         uc1=   -5.6e-11 m/V^2   
          at=      33000 m/s             prt=          0         
         using Berkeley noise model       noiMod=          1         
        noia=      1e+20                noib=      50000         
        noic=   -1.4e-12                  em=    4.1e+07         
          ef=          1                  af=          1         
          kf=          0              gdsnoi=-1.23457e-29         
         using Hspice diodes            using ACM 
         acm=         0                 hdif=         0 meter    
        ldif=         0 meter             js=         0 amp/m^2  
         jsw=         0 amp/m            xti=         0          
           n=         1                   cj=0.00096236 f/m^2    
          mj=  0.380501                   pb=       0.8 V        
        cjsw=2.37186e-10 f/m             mjsw=  0.107791          
         php=       0.8 V               pbsw (not used)           
      cjgate=2.37186e-10 f/m            cjswg (not used)           
       mjswg (not used)                 pbswg (not used)           
       lketa=-0.00944713               wketa= 0.00500085         
       pketa=-0.00308008               pvth0=-0.000919017         
         pk2=0.000320258               peta0=9.33065e-05         
         pu0=    32.7094                 pua=1.35883e-10         
       pvsat=    2004.06               prdsw=         -5         
 

  
      
 *****************************************************************
 ******  option summary
 ******
 runlvl  = 3         bypass  = 2         
 ******
 .title hw4_p3a

 ****** dc transfer curves tnom=  25.000 temp=  25.000 ******
 x

 volt         current   
             m1         
   10.00000m   54.5326u 
   20.00000m  107.0229u 
   30.00000m  157.4881u 
   40.00000m  205.9453u 
   50.00000m  252.4116u 
   60.00000m  296.9041u 
   70.00000m  339.4399u 
   80.00000m  380.0365u 
   90.00000m  418.7112u 
  100.00000m  455.4818u 
  110.00000m  490.3666u 
  120.00000m  523.3841u 
  130.00000m  554.5539u 
  140.00000m  583.8963u 
  150.00000m  611.4330u 
  160.00000m  637.1873u 
  170.00000m  661.1845u 
  180.00000m  683.4531u 
  190.00000m  704.0246u 
  200.00000m  722.9356u 
  210.00000m  740.2279u 
  220.00000m  755.9507u 
  230.00000m  770.1611u 
  240.00000m  782.9261u 
  250.00000m  794.3231u 
  260.00000m  804.4400u 
  270.00000m  813.3747u 
  280.00000m  821.2331u 
  290.00000m  828.1257u 
  300.00000m  834.1641u 
  310.00000m  839.4567u 
  320.00000m  844.1056u 
  330.00000m  848.2034u 
  340.00000m  851.8323u 
  350.00000m  855.0638u 
  360.00000m  857.9586u 
  370.00000m  860.5679u 
  380.00000m  862.9347u 
  390.00000m  865.0945u 
  400.00000m  867.0771u 
  410.00000m  868.9072u 
  420.00000m  870.6054u 
  430.00000m  872.1889u 
  440.00000m  873.6721u 
  450.00000m  875.0674u 
  460.00000m  876.3850u 
  470.00000m  877.6339u 
  480.00000m  878.8214u 
  490.00000m  879.9543u 
  500.00000m  881.0380u 
  510.00000m  882.0774u 
  520.00000m  883.0769u 
  530.00000m  884.0401u 
  540.00000m  884.9704u 
  550.00000m  885.8705u 
  560.00000m  886.7432u 
  570.00000m  887.5907u 
  580.00000m  888.4150u 
  590.00000m  889.2179u 
  600.00000m  890.0011u 
  610.00000m  890.7661u 
  620.00000m  891.5141u 
  630.00000m  892.2464u 
  640.00000m  892.9642u 
  650.00000m  893.6683u 
  660.00000m  894.3596u 
  670.00000m  895.0391u 
  680.00000m  895.7075u 
  690.00000m  896.3654u 
  700.00000m  897.0135u 
  710.00000m  897.6524u 
  720.00000m  898.2826u 
  730.00000m  898.9047u 
  740.00000m  899.5190u 
  750.00000m  900.1260u 
  760.00000m  900.7262u 
  770.00000m  901.3198u 
  780.00000m  901.9073u 
  790.00000m  902.4889u 
  800.00000m  903.0650u 
  810.00000m  903.6358u 
  820.00000m  904.2015u 
  830.00000m  904.7625u 
  840.00000m  905.3190u 
  850.00000m  905.8711u 
  860.00000m  906.4191u 
  870.00000m  906.9631u 
  880.00000m  907.5034u 
  890.00000m  908.0401u 
  900.00000m  908.5734u 
  910.00000m  909.1033u 
  920.00000m  909.6302u 
  930.00000m  910.1540u 
  940.00000m  910.6749u 
  950.00000m  911.1930u 
  960.00000m  911.7085u 
  970.00000m  912.2214u 
  980.00000m  912.7319u 
  990.00000m  913.2401u 
    1.00000   913.7459u 
    1.01000   914.2496u 
    1.02000   914.7512u 
    1.03000   915.2508u 
    1.04000   915.7485u 
    1.05000   916.2442u 
    1.06000   916.7382u 
    1.07000   917.2305u 
    1.08000   917.7210u 
    1.09000   918.2100u 
    1.10000   918.6974u 
    1.11000   919.1833u 
    1.12000   919.6677u 
    1.13000   920.1507u 
    1.14000   920.6324u 
    1.15000   921.1128u 
    1.16000   921.5919u 
    1.17000   922.0697u 
    1.18000   922.5464u 
    1.19000   923.0220u 
    1.20000   923.4964u 
    1.21000   923.9697u 
    1.22000   924.4420u 
    1.23000   924.9133u 
    1.24000   925.3837u 
    1.25000   925.8530u 
    1.26000   926.3215u 
    1.27000   926.7890u 
    1.28000   927.2557u 
    1.29000   927.7216u 
    1.30000   928.1866u 
    1.31000   928.6509u 
    1.32000   929.1144u 
    1.33000   929.5771u 
    1.34000   930.0391u 
    1.35000   930.5005u 
    1.36000   930.9611u 
    1.37000   931.4211u 
    1.38000   931.8804u 
    1.39000   932.3391u 
    1.40000   932.7972u 
    1.41000   933.2547u 
    1.42000   933.7116u 
    1.43000   934.1680u 
    1.44000   934.6239u 
    1.45000   935.0792u 
    1.46000   935.5339u 
    1.47000   935.9882u 
    1.48000   936.4420u 
    1.49000   936.8954u 
    1.50000   937.3482u 
    1.51000   937.8007u 
    1.52000   938.2526u 
    1.53000   938.7042u 
    1.54000   939.1553u 
    1.55000   939.6061u 
    1.56000   940.0564u 
    1.57000   940.5064u 
    1.58000   940.9560u 
    1.59000   941.4052u 
    1.60000   941.8541u 
    1.61000   942.3026u 
    1.62000   942.7509u 
    1.63000   943.1987u 
    1.64000   943.6463u 
    1.65000   944.0935u 
    1.66000   944.5405u 
    1.67000   944.9871u 
    1.68000   945.4335u 
    1.69000   945.8796u 
    1.70000   946.3254u 
    1.71000   946.7709u 
    1.72000   947.2162u 
    1.73000   947.6612u 
    1.74000   948.1060u 
    1.75000   948.5506u 
    1.76000   948.9949u 
    1.77000   949.4390u 
    1.78000   949.8829u 
    1.79000   950.3265u 
    1.80000   950.7699u 
y
 **info** dc convergence successful at Newton-Raphson method 
1****** HSPICE -- K-2015.06-SP1 linux64 (Aug 23 2015) ******                    
 ******  
 .title hw4_p3a

 ****** operating point information tnom=  25.000 temp=  25.000 ******
 ****** operating point status is all       simulation time is     0.     
    node    =voltage      node    =voltage

 +0:vds     =   1.8000  0:vg      = 872.0000m


 **** voltage sources

 subckt                        
 element  0:v1       0:vin     
  volts      1.8000   872.0000m
  current -950.7699u    0.     
  power      1.7114m    0.     

     total voltage source power dissipation=    1.7114m       watts




 **** mosfets


 subckt             
 element  0:m1      
 model    0:n_18    
 region     Saturati
  id       950.7699u
  ibs        0.     
  ibd        0.     
  vgs      872.0000m
  vds        1.8000 
  vbs        0.     
  vth      448.7438m
  vdsat    296.7434m
  vod      423.2562m
  beta      14.7398m
  gam eff  594.4165m
  gm         4.0750m
  gds       44.3335u
  gmb        1.0864m
  cdtot    368.4832p
  cgtot    124.2845f
  cstot    576.4521p
  cbtot    944.8782p
  cgs      101.2506f
  cgd       18.5232f




          ***** job concluded
1****** HSPICE -- K-2015.06-SP1 linux64 (Aug 23 2015) ******                    
 ******  
 .title hw4_p3a

 ****** job statistics summary tnom=  25.000 temp=  25.000 ******
  
  
 ******  Machine Information  ******
 CPU:
 model name	: Intel(R) Xeon(R) CPU E3-1230 v5 @ 3.40GHz
 cpu MHz	: 2291.015
  
 OS:
 Linux version 3.10.0-327.28.3.el7.x86_64 (builder@kbuilder.dev.centos.org) (gcc version 4.8.3 20140911 (Red Hat 4.8.3-9) (GCC) ) #1 SMP Thu Aug 18 19:05:49 UTC 2016


  ******  HSPICE Threads Information  ******

  Command Line Threads Count :     1
  Available CPU Count        :     8
  Actual Threads Count       :     1


  ******  Circuit Statistics  ******
  # nodes       =       3 # elements   =       3
  # resistors   =       0 # capacitors =       0 # inductors   =       0
  # mutual_inds =       0 # vccs       =       0 # vcvs        =       0
  # cccs        =       0 # ccvs       =       0 # volt_srcs   =       2
  # curr_srcs   =       0 # diodes     =       0 # bjts        =       0
  # jfets       =       0 # mosfets    =       1 # U elements  =       0
  # T elements  =       0 # W elements =       0 # B elements  =       0
  # S elements  =       0 # P elements =       0 # va device   =       0
  # vector_srcs =       0 # N elements =       0


  ******  Runtime Statistics (seconds)  ******

  analysis           time    # points   tot. iter  conv.iter
  op point           0.00           1           3
  dc sweep           0.00         180         361
  readin             0.01
  errchk             0.00
  setup              0.01
  output             0.00


           peak memory used        207.43 megabytes
           total cpu time            0.02 seconds
           total elapsed time        0.05 seconds
           job started at     16:19:31 11/15/2016
           job ended   at     16:19:31 11/15/2016


 lic: Release hspice token(s) 
 lic: total license checkout elapse time:        0.02(s)
